  5 element 403MHz yagi.                                                     




                                 - - - STRUCTURE SPECIFICATION - - -

                                     COORDINATES MUST BE INPUT IN
                                     METERS OR BE SCALED TO METERS
                                     BEFORE STRUCTURE INPUT IS ENDED


  WIRE                                                                               NO. OF    FIRST  LAST     TAG
  NO.        X1         Y1         Z1          X2         Y2         Z2      RADIUS   SEG.     SEG.   SEG.     NO.
     1    0.00000   -0.17940    0.00000     0.00000    0.17940    0.00000    0.00100      5        1     5       0
     2    0.20000   -0.15670    0.00000     0.20000    0.15670    0.00000    0.00100      5        6    10       1
     3    0.40000   -0.15890    0.00000     0.40000    0.15890    0.00000    0.00100      5       11    15       0
     4    0.60000   -0.15890    0.00000     0.60000    0.15890    0.00000    0.00100      5       16    20       0
     5    0.80000   -0.15890    0.00000     0.80000    0.15890    0.00000    0.00100      5       21    25       0

   TOTAL SEGMENTS USED=   25     NO. SEG. IN A SYMMETRIC CELL=   25     SYMMETRY FLAG=  0


         - MULTIPLE WIRE JUNCTIONS -
 JUNCTION    SEGMENTS  (- FOR END 1, + FOR END 2)
  NONE




                                 - - - - SEGMENTATION DATA - - - -

                                        COORDINATES IN METERS

                         I+ AND I- INDICATE THE SEGMENTS BEFORE AND AFTER I


  SEG.   COORDINATES OF SEG. CENTER     SEG.     ORIENTATION ANGLES    WIRE    CONNECTION DATA   TAG
  NO.       X         Y         Z       LENGTH     ALPHA     BETA      RADIUS    I-   I    I+    NO.
     1   0.00000  -0.14352   0.00000   0.07176    0.00000  90.00000   0.00100     0    1    2      0
     2   0.00000  -0.07176   0.00000   0.07176    0.00000  90.00000   0.00100     1    2    3      0
     3   0.00000   0.00000   0.00000   0.07176    0.00000  90.00000   0.00100     2    3    4      0
     4   0.00000   0.07176   0.00000   0.07176    0.00000  90.00000   0.00100     3    4    5      0
     5   0.00000   0.14352   0.00000   0.07176    0.00000  90.00000   0.00100     4    5    0      0
     6   0.20000  -0.12536   0.00000   0.06268    0.00000  90.00000   0.00100     0    6    7      1
     7   0.20000  -0.06268   0.00000   0.06268    0.00000  90.00000   0.00100     6    7    8      1
     8   0.20000   0.00000   0.00000   0.06268    0.00000  90.00000   0.00100     7    8    9      1
     9   0.20000   0.06268   0.00000   0.06268    0.00000  90.00000   0.00100     8    9   10      1
    10   0.20000   0.12536   0.00000   0.06268    0.00000  90.00000   0.00100     9   10    0      1
    11   0.40000  -0.12712   0.00000   0.06356    0.00000  90.00000   0.00100     0   11   12      0
    12   0.40000  -0.06356   0.00000   0.06356    0.00000  90.00000   0.00100    11   12   13      0
    13   0.40000   0.00000   0.00000   0.06356    0.00000  90.00000   0.00100    12   13   14      0
    14   0.40000   0.06356   0.00000   0.06356    0.00000  90.00000   0.00100    13   14   15      0
    15   0.40000   0.12712   0.00000   0.06356    0.00000  90.00000   0.00100    14   15    0      0
    16   0.60000  -0.12712   0.00000   0.06356    0.00000  90.00000   0.00100     0   16   17      0
    17   0.60000  -0.06356   0.00000   0.06356    0.00000  90.00000   0.00100    16   17   18      0
    18   0.60000   0.00000   0.00000   0.06356    0.00000  90.00000   0.00100    17   18   19      0
    19   0.60000   0.06356   0.00000   0.06356    0.00000  90.00000   0.00100    18   19   20      0
    20   0.60000   0.12712   0.00000   0.06356    0.00000  90.00000   0.00100    19   20    0      0
    21   0.80000  -0.12712   0.00000   0.06356    0.00000  90.00000   0.00100     0   21   22      0
    22   0.80000  -0.06356   0.00000   0.06356    0.00000  90.00000   0.00100    21   22   23      0
    23   0.80000   0.00000   0.00000   0.06356    0.00000  90.00000   0.00100    22   23   24      0
    24   0.80000   0.06356   0.00000   0.06356    0.00000  90.00000   0.00100    23   24   25      0
    25   0.80000   0.12712   0.00000   0.06356    0.00000  90.00000   0.00100    24   25    0      0






 ***** DATA CARD NO.  1   FR   0   101     0     0  3.50000E+02  1.00000E+00  0.00000E+00  0.00000E+00  0.00000E+00  0.00000E+00
 ***** DATA CARD NO.  2   EX   0     1     3     0  1.00000E+00  0.00000E+00  0.00000E+00  0.00000E+00  0.00000E+00  0.00000E+00
 ***** DATA CARD NO.  3   RP   0     1     1  1001  9.00000E+01  0.00000E+00  0.00000E+00  0.00000E+00  0.00000E+00  0.00000E+00




                                 - - - - - - FREQUENCY - - - - - -

                                    FREQUENCY= 3.5000E+02 MHZ
                                    WAVELENGTH= 8.5657E-01 METERS




                    APPROXIMATE INTEGRATION EMPLOYED FOR SEGMENTS MORE THAN   1.000 WAVELENGTHS APART



                               - - - STRUCTURE IMPEDANCE LOADING - - -

                                   THIS STRUCTURE IS NOT LOADED



                                  - - - ANTENNA ENVIRONMENT - - -

                                            FREE SPACE



                                - - - MATRIX TIMING - - -

                        FILL=    0.004 SEC.,  FACTOR=    0.000 SEC.



                                          - - - ANTENNA INPUT PARAMETERS - - -

   TAG   SEG.    VOLTAGE (VOLTS)         CURRENT (AMPS)         IMPEDANCE (OHMS)        ADMITTANCE (MHOS)      POWER
   NO.   NO.    REAL        IMAG.       REAL        IMAG.       REAL        IMAG.       REAL        IMAG.     (WATTS)
     1     8 1.00000E+00 0.00000E+00 6.00249E-04 4.73266E-03 2.63748E+01-2.07952E+02 6.00249E-04 4.73266E-03 3.00124E-04



                             - - - CURRENTS AND LOCATION - - -

                                 DISTANCES IN WAVELENGTHS


  SEG.  TAG    COORD. OF SEG. CENTER     SEG.            - - - CURRENT (AMPS) - - -
  NO.   NO.     X        Y        Z      LENGTH     REAL        IMAG.       MAG.        PHASE
     1    0   0.0000  -0.1676   0.0000  0.08378   1.7021E-04 -4.0281E-04  4.3729E-04  -67.093
     2    0   0.0000  -0.0838   0.0000  0.08378   3.9370E-04 -9.4630E-04  1.0249E-03  -67.411
     3    0   0.0000   0.0000   0.0000  0.08378   4.7098E-04 -1.1389E-03  1.2324E-03  -67.532
     4    0   0.0000   0.0838   0.0000  0.08378   3.9370E-04 -9.4630E-04  1.0249E-03  -67.411
     5    0   0.0000   0.1676   0.0000  0.08378   1.7021E-04 -4.0281E-04  4.3729E-04  -67.093
     6    1   0.2335  -0.1464   0.0000  0.07318   2.2381E-04  1.4039E-03  1.4216E-03   80.942
     7    1   0.2335  -0.0732   0.0000  0.07318   5.0544E-04  3.5422E-03  3.5781E-03   81.879
     8    1   0.2335   0.0000   0.0000  0.07318   6.0025E-04  4.7327E-03  4.7706E-03   82.772
     9    1   0.2335   0.0732   0.0000  0.07318   5.0544E-04  3.5422E-03  3.5781E-03   81.879
    10    1   0.2335   0.1464   0.0000  0.07318   2.2381E-04  1.4039E-03  1.4216E-03   80.942
    11    0   0.4670  -0.1484   0.0000  0.07420   1.4981E-04 -1.3310E-04  2.0040E-04  -41.621
    12    0   0.4670  -0.0742   0.0000  0.07420   3.3938E-04 -3.0970E-04  4.5945E-04  -42.382
    13    0   0.4670   0.0000   0.0000  0.07420   4.0344E-04 -3.7184E-04  5.4866E-04  -42.665
    14    0   0.4670   0.0742   0.0000  0.07420   3.3938E-04 -3.0970E-04  4.5945E-04  -42.382
    15    0   0.4670   0.1484   0.0000  0.07420   1.4981E-04 -1.3310E-04  2.0040E-04  -41.621
    16    0   0.7005  -0.1484   0.0000  0.07420  -6.0539E-05 -1.2291E-04  1.3701E-04 -116.223
    17    0   0.7005  -0.0742   0.0000  0.07420  -1.3713E-04 -2.7931E-04  3.1116E-04 -116.150
    18    0   0.7005   0.0000   0.0000  0.07420  -1.6304E-04 -3.3241E-04  3.7024E-04 -116.127
    19    0   0.7005   0.0742   0.0000  0.07420  -1.3713E-04 -2.7931E-04  3.1116E-04 -116.150
    20    0   0.7005   0.1484   0.0000  0.07420  -6.0539E-05 -1.2291E-04  1.3701E-04 -116.223
    21    0   0.9340  -0.1484   0.0000  0.07420  -1.1295E-04  4.8256E-05  1.2283E-04  156.867
    22    0   0.9340  -0.0742   0.0000  0.07420  -2.5599E-04  1.0940E-04  2.7838E-04  156.861
    23    0   0.9340   0.0000   0.0000  0.07420  -3.0436E-04  1.3011E-04  3.3101E-04  156.854
    24    0   0.9340   0.0742   0.0000  0.07420  -2.5599E-04  1.0940E-04  2.7838E-04  156.861
    25    0   0.9340   0.1484   0.0000  0.07420  -1.1295E-04  4.8256E-05  1.2283E-04  156.867



                                        - - - POWER BUDGET - - -

                                           INPUT POWER   = 3.0012E-04 WATTS
                                           RADIATED POWER= 3.0012E-04 WATTS
                                           STRUCTURE LOSS= 0.0000E+00 WATTS
                                           NETWORK LOSS  = 0.0000E+00 WATTS
                                           EFFICIENCY    = 100.00 PERCENT



                                                - - - RADIATION PATTERNS - - -

  - - ANGLES - -           - POWER GAINS -       - - - POLARIZATION - - -    - - - E(THETA) - - -    - - - E(PHI) - - -
  THETA     PHI        VERT.   HOR.    TOTAL      AXIAL     TILT   SENSE     MAGNITUDE    PHASE     MAGNITUDE    PHASE
 DEGREES  DEGREES       DB      DB      DB        RATIO     DEG.              VOLTS/M    DEGREES      VOLTS/M    DEGREES
   90.00     0.00    -999.99    3.90    3.90    0.00000    90.00  LINEAR    0.00000E+00     0.00    2.10173E-01    80.98




                                 - - - - - - FREQUENCY - - - - - -

                                    FREQUENCY= 3.5100E+02 MHZ
                                    WAVELENGTH= 8.5413E-01 METERS




                    APPROXIMATE INTEGRATION EMPLOYED FOR SEGMENTS MORE THAN   1.000 WAVELENGTHS APART



                               - - - STRUCTURE IMPEDANCE LOADING - - -

                                   THIS STRUCTURE IS NOT LOADED



                                  - - - ANTENNA ENVIRONMENT - - -

                                            FREE SPACE



                                - - - MATRIX TIMING - - -

                        FILL=    0.000 SEC.,  FACTOR=    0.000 SEC.



                                          - - - ANTENNA INPUT PARAMETERS - - -

   TAG   SEG.    VOLTAGE (VOLTS)         CURRENT (AMPS)         IMPEDANCE (OHMS)        ADMITTANCE (MHOS)      POWER
   NO.   NO.    REAL        IMAG.       REAL        IMAG.       REAL        IMAG.       REAL        IMAG.     (WATTS)
     1     8 1.00000E+00 0.00000E+00 6.13847E-04 4.78677E-03 2.63567E+01-2.05529E+02 6.13847E-04 4.78677E-03 3.06923E-04



                             - - - CURRENTS AND LOCATION - - -

                                 DISTANCES IN WAVELENGTHS


  SEG.  TAG    COORD. OF SEG. CENTER     SEG.            - - - CURRENT (AMPS) - - -
  NO.   NO.     X        Y        Z      LENGTH     REAL        IMAG.       MAG.        PHASE
     1    0   0.0000  -0.1680   0.0000  0.08402   1.6916E-04 -4.1850E-04  4.5139E-04  -67.991
     2    0   0.0000  -0.0840   0.0000  0.08402   3.9144E-04 -9.8329E-04  1.0583E-03  -68.293
     3    0   0.0000   0.0000   0.0000  0.08402   4.6834E-04 -1.1834E-03  1.2727E-03  -68.409
     4    0   0.0000   0.0840   0.0000  0.08402   3.9144E-04 -9.8329E-04  1.0583E-03  -68.293
     5    0   0.0000   0.1680   0.0000  0.08402   1.6916E-04 -4.1850E-04  4.5139E-04  -67.991
     6    1   0.2342  -0.1468   0.0000  0.07338   2.2876E-04  1.4221E-03  1.4404E-03   80.861
     7    1   0.2342  -0.0734   0.0000  0.07338   5.1682E-04  3.5859E-03  3.6229E-03   81.799
     8    1   0.2342   0.0000   0.0000  0.07338   6.1385E-04  4.7868E-03  4.8260E-03   82.692
     9    1   0.2342   0.0734   0.0000  0.07338   5.1682E-04  3.5859E-03  3.6229E-03   81.799
    10    1   0.2342   0.1468   0.0000  0.07338   2.2876E-04  1.4221E-03  1.4403E-03   80.861
    11    0   0.4683  -0.1488   0.0000  0.07441   1.5389E-04 -1.3689E-04  2.0596E-04  -41.654
    12    0   0.4683  -0.0744   0.0000  0.07441   3.4877E-04 -3.1848E-04  4.7231E-04  -42.401
    13    0   0.4683   0.0000   0.0000  0.07441   4.1466E-04 -3.8236E-04  5.6404E-04  -42.679
    14    0   0.4683   0.0744   0.0000  0.07441   3.4877E-04 -3.1848E-04  4.7231E-04  -42.401
    15    0   0.4683   0.1488   0.0000  0.07441   1.5389E-04 -1.3689E-04  2.0596E-04  -41.654
    16    0   0.7025  -0.1488   0.0000  0.07441  -6.2993E-05 -1.2617E-04  1.4102E-04 -116.531
    17    0   0.7025  -0.0744   0.0000  0.07441  -1.4275E-04 -2.8683E-04  3.2039E-04 -116.459
    18    0   0.7025   0.0000   0.0000  0.07441  -1.6974E-04 -3.4140E-04  3.8126E-04 -116.436
    19    0   0.7025   0.0744   0.0000  0.07441  -1.4275E-04 -2.8683E-04  3.2039E-04 -116.459
    20    0   0.7025   0.1488   0.0000  0.07441  -6.2993E-05 -1.2617E-04  1.4102E-04 -116.531
    21    0   0.9366  -0.1488   0.0000  0.07441  -1.1588E-04  5.1385E-05  1.2677E-04  156.087
    22    0   0.9366  -0.0744   0.0000  0.07441  -2.6273E-04  1.1654E-04  2.8741E-04  156.079
    23    0   0.9366   0.0000   0.0000  0.07441  -3.1241E-04  1.3863E-04  3.4179E-04  156.072
    24    0   0.9366   0.0744   0.0000  0.07441  -2.6273E-04  1.1654E-04  2.8741E-04  156.079
    25    0   0.9366   0.1488   0.0000  0.07441  -1.1588E-04  5.1385E-05  1.2677E-04  156.087



                                        - - - POWER BUDGET - - -

                                           INPUT POWER   = 3.0692E-04 WATTS
                                           RADIATED POWER= 3.0692E-04 WATTS
                                           STRUCTURE LOSS= 0.0000E+00 WATTS
                                           NETWORK LOSS  = 0.0000E+00 WATTS
                                           EFFICIENCY    = 100.00 PERCENT



                                                - - - RADIATION PATTERNS - - -

  - - ANGLES - -           - POWER GAINS -       - - - POLARIZATION - - -    - - - E(THETA) - - -    - - - E(PHI) - - -
  THETA     PHI        VERT.   HOR.    TOTAL      AXIAL     TILT   SENSE     MAGNITUDE    PHASE     MAGNITUDE    PHASE
 DEGREES  DEGREES       DB      DB      DB        RATIO     DEG.              VOLTS/M    DEGREES      VOLTS/M    DEGREES
   90.00     0.00    -999.99    3.99    3.99    0.00000    90.00  LINEAR    0.00000E+00     0.00    2.14655E-01    81.48




                                 - - - - - - FREQUENCY - - - - - -

                                    FREQUENCY= 3.5200E+02 MHZ
                                    WAVELENGTH= 8.5170E-01 METERS




                    APPROXIMATE INTEGRATION EMPLOYED FOR SEGMENTS MORE THAN   1.000 WAVELENGTHS APART



                               - - - STRUCTURE IMPEDANCE LOADING - - -

                                   THIS STRUCTURE IS NOT LOADED



                                  - - - ANTENNA ENVIRONMENT - - -

                                            FREE SPACE



                                - - - MATRIX TIMING - - -

                        FILL=    0.000 SEC.,  FACTOR=    0.000 SEC.



                                          - - - ANTENNA INPUT PARAMETERS - - -

   TAG   SEG.    VOLTAGE (VOLTS)         CURRENT (AMPS)         IMPEDANCE (OHMS)        ADMITTANCE (MHOS)      POWER
   NO.   NO.    REAL        IMAG.       REAL        IMAG.       REAL        IMAG.       REAL        IMAG.     (WATTS)
     1     8 1.00000E+00 0.00000E+00 6.27840E-04 4.84215E-03 2.63349E+01-2.03105E+02 6.27840E-04 4.84215E-03 3.13920E-04



                             - - - CURRENTS AND LOCATION - - -

                                 DISTANCES IN WAVELENGTHS


  SEG.  TAG    COORD. OF SEG. CENTER     SEG.            - - - CURRENT (AMPS) - - -
  NO.   NO.     X        Y        Z      LENGTH     REAL        IMAG.       MAG.        PHASE
     1    0   0.0000  -0.1685   0.0000  0.08425   1.6768E-04 -4.3482E-04  4.6603E-04  -68.911
     2    0   0.0000  -0.0843   0.0000  0.08425   3.8817E-04 -1.0218E-03  1.0930E-03  -69.198
     3    0   0.0000   0.0000   0.0000  0.08425   4.6449E-04 -1.2298E-03  1.3146E-03  -69.308
     4    0   0.0000   0.0843   0.0000  0.08425   3.8817E-04 -1.0218E-03  1.0930E-03  -69.198
     5    0   0.0000   0.1685   0.0000  0.08425   1.6768E-04 -4.3482E-04  4.6603E-04  -68.911
     6    1   0.2348  -0.1472   0.0000  0.07359   2.3385E-04  1.4407E-03  1.4596E-03   80.780
     7    1   0.2348  -0.0736   0.0000  0.07359   5.2853E-04  3.6306E-03  3.6689E-03   81.717
     8    1   0.2348   0.0000   0.0000  0.07359   6.2784E-04  4.8422E-03  4.8827E-03   82.612
     9    1   0.2348   0.0736   0.0000  0.07359   5.2853E-04  3.6306E-03  3.6689E-03   81.717
    10    1   0.2348   0.1472   0.0000  0.07359   2.3385E-04  1.4407E-03  1.4596E-03   80.780
    11    0   0.4696  -0.1493   0.0000  0.07463   1.5816E-04 -1.4084E-04  2.1178E-04  -41.683
    12    0   0.4696  -0.0746   0.0000  0.07463   3.5860E-04 -3.2763E-04  4.8573E-04  -42.416
    13    0   0.4696   0.0000   0.0000  0.07463   4.2640E-04 -3.9332E-04  5.8010E-04  -42.689
    14    0   0.4696   0.0746   0.0000  0.07463   3.5860E-04 -3.2763E-04  4.8573E-04  -42.416
    15    0   0.4696   0.1493   0.0000  0.07463   1.5816E-04 -1.4084E-04  2.1178E-04  -41.683
    16    0   0.7045  -0.1493   0.0000  0.07463  -6.5561E-05 -1.2960E-04  1.4524E-04 -116.834
    17    0   0.7045  -0.0746   0.0000  0.07463  -1.4863E-04 -2.9472E-04  3.3007E-04 -116.762
    18    0   0.7045   0.0000   0.0000  0.07463  -1.7675E-04 -3.5082E-04  3.9283E-04 -116.740
    19    0   0.7045   0.0746   0.0000  0.07463  -1.4863E-04 -2.9472E-04  3.3007E-04 -116.762
    20    0   0.7045   0.1493   0.0000  0.07463  -6.5561E-05 -1.2960E-04  1.4524E-04 -116.834
    21    0   0.9393  -0.1493   0.0000  0.07463  -1.1893E-04  5.4690E-05  1.3090E-04  155.305
    22    0   0.9393  -0.0746   0.0000  0.07463  -2.6974E-04  1.2409E-04  2.9691E-04  155.296
    23    0   0.9393   0.0000   0.0000  0.07463  -3.2079E-04  1.4762E-04  3.5313E-04  155.289
    24    0   0.9393   0.0746   0.0000  0.07463  -2.6974E-04  1.2409E-04  2.9691E-04  155.296
    25    0   0.9393   0.1493   0.0000  0.07463  -1.1893E-04  5.4690E-05  1.3090E-04  155.305



                                        - - - POWER BUDGET - - -

                                           INPUT POWER   = 3.1392E-04 WATTS
                                           RADIATED POWER= 3.1392E-04 WATTS
                                           STRUCTURE LOSS= 0.0000E+00 WATTS
                                           NETWORK LOSS  = 0.0000E+00 WATTS
                                           EFFICIENCY    = 100.00 PERCENT



                                                - - - RADIATION PATTERNS - - -

  - - ANGLES - -           - POWER GAINS -       - - - POLARIZATION - - -    - - - E(THETA) - - -    - - - E(PHI) - - -
  THETA     PHI        VERT.   HOR.    TOTAL      AXIAL     TILT   SENSE     MAGNITUDE    PHASE     MAGNITUDE    PHASE
 DEGREES  DEGREES       DB      DB      DB        RATIO     DEG.              VOLTS/M    DEGREES      VOLTS/M    DEGREES
   90.00     0.00    -999.99    4.08    4.08    0.00000    90.00  LINEAR    0.00000E+00     0.00    2.19364E-01    81.97




                                 - - - - - - FREQUENCY - - - - - -

                                    FREQUENCY= 3.5300E+02 MHZ
                                    WAVELENGTH= 8.4929E-01 METERS




                    APPROXIMATE INTEGRATION EMPLOYED FOR SEGMENTS MORE THAN   1.000 WAVELENGTHS APART



                               - - - STRUCTURE IMPEDANCE LOADING - - -

                                   THIS STRUCTURE IS NOT LOADED



                                  - - - ANTENNA ENVIRONMENT - - -

                                            FREE SPACE



                                - - - MATRIX TIMING - - -

                        FILL=    0.000 SEC.,  FACTOR=    0.000 SEC.



                                          - - - ANTENNA INPUT PARAMETERS - - -

   TAG   SEG.    VOLTAGE (VOLTS)         CURRENT (AMPS)         IMPEDANCE (OHMS)        ADMITTANCE (MHOS)      POWER
